
**** 10/17/24 15:48:21 ******* PSpice 17.4.0 (Nov 2018) ******* ID# 0 ********

 ** Profile: "SCHEMATIC1-Simulation"  [ C:\Users\teaneyje\Documents\Supa-Cap\Design Files\Super Capacitor V1\Simulations\PSpice\Super


 ****     CIRCUIT DESCRIPTION


******************************************************************************




** Creating circuit file "Simulation.cir" 
** WARNING: THIS AUTOMATICALLY GENERATED FILE MAY BE OVERWRITTEN BY SUBSEQUENT SIMULATIONS

*Libraries: 
* Profile Libraries :
* Local Libraries :
* From [PSPICE NETLIST] section of C:\Users\teaneyje\cdssetup\OrCAD_PSpice\17.4.0\PSpice.ini file:
.lib "C:\Users\teaneyje\OneDrive - Rose-Hulman Institute of Technology\Documents\Classes\RHIT_Libraries\Class.lib" 
.lib "nom.lib" 

*Analysis directives: 
.TRAN  0 100 0 
.OPTIONS ADVCONV
.PROBE64 V(alias(*)) I(alias(*)) W(alias(*)) D(alias(*)) NOISE(alias(*)) 
.INC "..\SCHEMATIC1.net" 



**** INCLUDING SCHEMATIC1.net ****
* source SUPERCAP-CAPBOARD
C_C1         N000400 V_15 100 IC=0
R_R1         N00191 N000400 0.15 
C_C2         N004370 N00191 100 IC=0
R_R5         N00513 N004370 0.15 
R_R8         N00779 N007030 0.15 
C_C3         N007030 N00513 100 IC=0
C_C4         N009690 N00779 100 IC=0
R_R11         N01045 N009690 0.15 
R_R14         N01311 N012350 0.15 
C_C5         N012350 N01045 100 IC=0
R_R17         0 N016910 0.15 
C_C6         N016910 N01311 100 IC=0
X_s1         N07080 V_15 N/O_switch PARAMS: to=3
R_R19         0 V_15 100k 
X_D1         V_15 N00191 Ideal_Zener PARAMS:
+BV=2.5, VF=0.7
X_D2         N00191 N00513 Ideal_Zener PARAMS:
+BV=2.5, VF=0.7
X_D3         N00513 N00779 Ideal_Zener PARAMS:
+BV=2.5, VF=0.7
X_D4         N00779 N01045 Ideal_Zener PARAMS:
+BV=2.5, VF=0.7
X_D5         N01045 N01311 Ideal_Zener PARAMS:
+BV=2.5, VF=0.7
X_D6         N01311 0 Ideal_Zener PARAMS:
+BV=2.5, VF=0.7
I_I1         0 N07080 DC 3
V_V1         N08735 N086801  DC 24
I_I2         0 N086801 DC 3
R_R20         0 N08735 12 
Eamp__U1         N08984 0 value={LIMIT(1MEG*v(N09040,N08984),-15,15)}
V_V2         N09040 0  DC 24
R_R21         N08984 0 4 

**** RESUMING Simulation.cir ****
.END

**** 10/17/24 15:48:21 ******* PSpice 17.4.0 (Nov 2018) ******* ID# 0 ********

 ** Profile: "SCHEMATIC1-Simulation"  [ C:\Users\teaneyje\Documents\Supa-Cap\Design Files\Super Capacitor V1\Simulations\PSpice\Super


 ****     Voltage Controlled Switch MODEL PARAMETERS


******************************************************************************




               X_s1.sx         X_D1.Szzz1      X_D2.Szzz1      X_D3.Szzz1      
         RON    1.000000E-03     .01             .01             .01         
        ROFF    1.000000E+09    1.000000E+06    1.000000E+06    1.000000E+06 
         VON    1               1.000000E-03    1.000000E-03    1.000000E-03 
        VOFF     .5             0               0               0            


               X_D4.Szzz1      X_D5.Szzz1      X_D6.Szzz1      
         RON     .01             .01             .01         
        ROFF    1.000000E+06    1.000000E+06    1.000000E+06 
         VON    1.000000E-03    1.000000E-03    1.000000E-03 
        VOFF    0               0               0            


**** 10/17/24 15:48:21 ******* PSpice 17.4.0 (Nov 2018) ******* ID# 0 ********

 ** Profile: "SCHEMATIC1-Simulation"  [ C:\Users\teaneyje\Documents\Supa-Cap\Design Files\Super Capacitor V1\Simulations\PSpice\Super


 ****     INITIAL TRANSIENT SOLUTION       TEMPERATURE =   27.000 DEG C


******************************************************************************



 NODE   VOLTAGE     NODE   VOLTAGE     NODE   VOLTAGE     NODE   VOLTAGE


( V_15)    2.7332  (N00191)    2.2777 (N00513)    1.8222 (N00779)    1.3666     

(N01045)     .9111 (N01311)     .4555 (N07080) 2.997E+09 (N08735)   36.0000     

(N08984)   15.0000 (N09040)   24.0000 (X_D1.1)    3.4332 (X_D1.2)    4.7777     

(X_D2.1)    2.9777 (X_D2.2)    4.3222 (X_D3.1)    2.5222 (X_D3.2)    3.8666     

(X_D4.1)    2.0666 (X_D4.2)    3.4111 (X_D5.1)    1.6111 (X_D5.2)    2.9555     

(X_D6.1)    1.1555 (X_D6.2)    2.5000 (X_s1.3)    0.0000 (N000400)    2.7272    

(N004370)    2.2717                   (N007030)    1.8162                       

(N009690)    1.3606                   (N012350)     .9051                       

(N016910)     .4495                   (N086801)   12.0000                   




    VOLTAGE SOURCE CURRENTS
    NAME         CURRENT

    V_V1        -3.000E+00
    V_V2         0.000E+00
    X_s1.V_s1    0.000E+00
    X_D1.V_V1   -2.049E-06
    X_D1.V_V3   -1.158E-06
    X_D2.V_V1   -2.049E-06
    X_D2.V_V3   -1.158E-06
    X_D3.V_V1   -2.049E-06
    X_D3.V_V3   -1.158E-06
    X_D4.V_V1   -2.049E-06
    X_D4.V_V3   -1.158E-06
    X_D5.V_V1   -2.049E-06
    X_D5.V_V3   -1.158E-06
    X_D6.V_V1   -2.049E-06
    X_D6.V_V3   -1.158E-06

    TOTAL POWER DISSIPATION   7.20E+01  WATTS



          JOB CONCLUDED

**** 10/17/24 15:48:21 ******* PSpice 17.4.0 (Nov 2018) ******* ID# 0 ********

 ** Profile: "SCHEMATIC1-Simulation"  [ C:\Users\teaneyje\Documents\Supa-Cap\Design Files\Super Capacitor V1\Simulations\PSpice\Super


 ****     JOB STATISTICS SUMMARY


******************************************************************************



  License check-out time            =        3.97
  Total job time (using Solver 1)   =         .03
